#Digilent WaveForms Logic Analyzer Acquisition
#Device Name: Discovery2
#Serial Number: SN:210321AC1343
#Date Time: 2019-12-14 12:39:46.018
#Sample rate: 1e+08Hz
#Samples: 24998

Time (s),ADC data,New Sample
0.00475002,X,0
0.00475003,X,0
0.00475004,X,0
0.00475005,X,0
0.00475006,X,0
0.00475007,X,0
0.00475008,X,0
0.00475009,X,0
0.0047501,X,0
0.00475011,X,0
0.00475012,523,1
0.00475013,523,1
0.00475014,523,0
0.00475015,523,0
0.00475016,523,0
0.00475017,523,0
0.00475018,523,0
0.00475019,523,0
0.0047502,523,0
0.00475021,523,0
0.00475022,523,0
0.00475023,523,0
0.00475024,807,1
0.00475025,807,1
0.00475026,807,0
0.00475027,807,0
0.00475028,807,0
0.00475029,807,0
0.0047503,807,0
0.00475031,807,0
0.00475032,807,0
0.00475033,807,0
0.00475034,807,0
0.00475035,807,0
0.00475036,2729,1
0.00475037,2729,1
0.00475038,2729,0
0.00475039,2729,0
0.0047504,2729,0
0.00475041,2729,0
0.00475042,2729,0
0.00475043,2729,0
0.00475044,2729,0
0.00475045,2729,0
0.00475046,2729,0
0.00475047,2729,0
0.00475048,2309,1
0.00475049,2309,1
0.0047505,2309,0
0.00475051,2309,0
0.00475052,2309,0
0.00475053,2309,0
0.00475054,2309,0
0.00475055,2309,0
0.00475056,2309,0
0.00475057,2309,0
0.00475058,2309,0
0.00475059,2309,0
0.0047506,1314,1
0.00475061,1314,1
0.00475062,1314,0
0.00475063,1314,0
0.00475064,1314,0
0.00475065,1314,0
0.00475066,1314,0
0.00475067,1314,0
0.00475068,1314,0
0.00475069,1314,0
0.0047507,1314,0
0.00475071,1314,0
0.00475072,642,1
0.00475073,642,1
0.00475074,642,0
0.00475075,642,0
0.00475076,642,0
0.00475077,642,0
0.00475078,642,0
0.00475079,642,0
0.0047508,642,0
0.00475081,642,0
0.00475082,642,0
0.00475083,642,0
0.00475084,288,1
0.00475085,288,1
0.00475086,288,0
0.00475087,288,0
0.00475088,288,0
0.00475089,288,0
0.0047509,288,0
0.00475091,288,0
0.00475092,288,0
0.00475093,288,0
0.00475094,288,0
0.00475095,288,0
0.00475096,3348,1
0.00475097,3348,1
0.00475098,3348,0
0.00475099,3348,0
0.004751,3348,0
0.00475101,3348,0
0.00475102,3348,0
0.00475103,3348,0
0.00475104,3348,0
0.00475105,3348,0
0.00475106,3348,0
0.00475107,3348,0
0.00475108,2560,1
0.00475109,2560,1
0.0047511,2560,0
0.00475111,2560,0
0.00475112,2560,0
0.00475113,2560,0
0.00475114,2560,0
0.00475115,2560,0
0.00475116,2560,0
0.00475117,2560,0
0.00475118,2560,0
0.00475119,2560,0
0.0047512,1794,1
0.00475121,1794,1
0.00475122,1794,0
0.00475123,1794,0
0.00475124,1794,0
0.00475125,1794,0
0.00475126,1794,0
0.00475127,1794,0
0.00475128,1794,0
0.00475129,1794,0
0.0047513,1794,0
0.00475131,1794,0
0.00475132,2860,1
0.00475133,2860,1
0.00475134,2860,0
0.00475135,2860,0
0.00475136,2860,0
0.00475137,2860,0
0.00475138,2860,0
0.00475139,2860,0
0.0047514,2860,0
0.00475141,2860,0
0.00475142,2860,0
0.00475143,2860,0
0.00475144,1553,1
0.00475145,1553,1
0.00475146,1553,0
0.00475147,1553,0
0.00475148,1553,0
0.00475149,1553,0
0.0047515,1553,0
0.00475151,1553,0
0.00475152,1553,0
0.00475153,1553,0
0.00475154,1553,0
0.00475155,1553,0
0.00475156,286,1
0.00475157,286,1
0.00475158,286,0
0.00475159,286,0
0.0047516,286,0
0.00475161,286,0
0.00475162,286,0
0.00475163,286,0
0.00475164,286,0
0.00475165,286,0
0.00475166,286,0
0.00475167,286,0
0.00475168,547,1
0.00475169,547,1
0.0047517,547,0
0.00475171,547,0
0.00475172,547,0
0.00475173,547,0
0.00475174,547,0
0.00475175,547,0
0.00475176,547,0
0.00475177,547,0
0.00475178,547,0
0.00475179,547,0
0.0047518,1307,1
0.00475181,1307,1
0.00475182,1307,0
0.00475183,1307,0
0.00475184,1307,0
0.00475185,1307,0
0.00475186,1307,0
0.00475187,1307,0
0.00475188,1307,0
0.00475189,1307,0
0.0047519,1307,0
0.00475191,1307,0
0.00475192,3903,1
0.00475193,3903,1
0.00475194,3903,0
0.00475195,3903,0
0.00475196,3903,0
0.00475197,3903,0
0.00475198,3903,0
0.00475199,3903,0
0.004752,3903,0
0.00475201,3903,0
0.00475202,3903,0
0.00475203,3903,0
0.00475204,1003,1
0.00475205,1003,1
0.00475206,1003,0
0.00475207,1003,0
0.00475208,1003,0
0.00475209,1003,0
0.0047521,1003,0
0.00475211,1003,0
0.00475212,1003,0
0.00475213,1003,0
0.00475214,1003,0
0.00475215,1003,0
0.00475216,2607,1
0.00475217,2607,1
0.00475218,2607,0
0.00475219,2607,0
0.0047522,2607,0
0.00475221,2607,0
0.00475222,2607,0
0.00475223,2607,0
0.00475224,2607,0
0.00475225,2607,0
0.00475226,2607,0
0.00475227,2607,0
0.00475228,3843,1
0.00475229,3843,1
0.0047523,3843,0
0.00475231,3843,0
0.00475232,3843,0
0.00475233,3843,0
0.00475234,3843,0
0.00475235,3843,0
0.00475236,3843,0
0.00475237,3843,0
0.00475238,3843,0
0.00475239,3843,0
0.0047524,1045,1
0.00475241,1045,1
0.00475242,1045,0
0.00475243,1045,0
0.00475244,1045,0
0.00475245,1045,0
0.00475246,1045,0
0.00475247,1045,0
0.00475248,1045,0
0.00475249,1045,0
0.0047525,1045,0
0.00475251,1045,0
0.00475252,2858,1
0.00475253,2858,1
0.00475254,2858,0
0.00475255,2858,0
0.00475256,2858,0
0.00475257,2858,0
0.00475258,2858,0
0.00475259,2858,0
0.0047526,2858,0
0.00475261,2858,0
0.00475262,2858,0
0.00475263,2858,0
0.00475264,3366,1
0.00475265,3366,1
0.00475266,3366,0
0.00475267,3366,0
0.00475268,3366,0
0.00475269,3366,0
0.0047527,3366,0
0.00475271,3366,0
0.00475272,3366,0
0.00475273,3366,0
0.00475274,3366,0
0.00475275,3366,0
0.00475276,2232,1
0.00475277,2232,1
0.00475278,2232,0
0.00475279,2232,0
0.0047528,2232,0
0.00475281,2232,0
0.00475282,2232,0
0.00475283,2232,0
0.00475284,2232,0
0.00475285,2232,0
0.00475286,2232,0
0.00475287,2232,0
0.00475288,2872,1
0.00475289,2872,1
0.0047529,2872,0
0.00475291,2872,0
0.00475292,2872,0
0.00475293,2872,0
0.00475294,2872,0
0.00475295,2872,0
0.00475296,2872,0
0.00475297,2872,0
0.00475298,2872,0
0.00475299,2872,0
0.004753,0,1
0.00475301,0,1
0.00475302,0,0
0.00475303,0,0
0.00475304,0,0
0.00475305,0,0
0.00475306,0,0
0.00475307,0,0
0.00475308,0,0
0.00475309,0,0
0.0047531,0,0
0.00475311,0,0
0.00475312,2348,1
0.00475313,2348,1
0.00475314,2348,0
0.00475315,2348,0
0.00475316,2348,0
0.00475317,2348,0
0.00475318,2348,0
0.00475319,2348,0
0.0047532,2348,0
0.00475321,2348,0
0.00475322,2348,0
0.00475323,2348,0
0.00475324,696,1
0.00475325,696,1
0.00475326,696,0
0.00475327,696,0
0.00475328,696,0
0.00475329,696,0
0.0047533,696,0
0.00475331,696,0
0.00475332,696,0
0.00475333,696,0
0.00475334,696,0
0.00475335,696,0
0.00475336,778,1
0.00475337,778,1
0.00475338,778,0
0.00475339,778,0
0.0047534,778,0
0.00475341,778,0
0.00475342,778,0
0.00475343,778,0
0.00475344,778,0
0.00475345,778,0
0.00475346,778,0
0.00475347,778,0
0.00475348,46,1
0.00475349,46,1
0.0047535,46,0
0.00475351,46,0
0.00475352,46,0
0.00475353,46,0
0.00475354,46,0
0.00475355,46,0
0.00475356,46,0
0.00475357,46,0
0.00475358,46,0
0.00475359,46,0
0.0047536,1555,1
0.00475361,1555,1
0.00475362,1555,0
0.00475363,1555,0
0.00475364,1555,0
0.00475365,1555,0
0.00475366,1555,0
0.00475367,1555,0
0.00475368,1555,0
0.00475369,1555,0
0.0047537,1555,0
0.00475371,1555,0
0.00475372,1197,1
0.00475373,1197,1
0.00475374,1197,0
0.00475375,1197,0
0.00475376,1197,0
0.00475377,1197,0
0.00475378,1197,0
0.00475379,1197,0
0.0047538,1197,0
0.00475381,1197,0
0.00475382,1197,0
0.00475383,1197,0
0.00475384,2607,1
0.00475385,2607,1
0.00475386,2607,0
0.00475387,2607,0
0.00475388,2607,0
0.00475389,2607,0
0.0047539,2607,0
0.00475391,2607,0
0.00475392,2607,0
0.00475393,2607,0
0.00475394,2607,0
0.00475395,2607,0
0.00475396,3335,1
0.00475397,3335,1
0.00475398,3335,0
0.00475399,3335,0
0.004754,3335,0
0.00475401,3335,0
0.00475402,3335,0
0.00475403,3335,0
0.00475404,3335,0
0.00475405,3335,0
0.00475406,3335,0
0.00475407,3335,0
0.00475408,827,1
0.00475409,827,1
0.0047541,827,0
0.00475411,827,0
0.00475412,827,0
0.00475413,827,0
0.00475414,827,0
0.00475415,827,0
0.00475416,827,0
0.00475417,827,0
0.00475418,827,0
0.00475419,827,0
0.0047542,1197,1
0.00475421,1197,1
0.00475422,1197,0
0.00475423,1197,0
0.00475424,1197,0
0.00475425,1197,0
0.00475426,1197,0
0.00475427,1197,0
0.00475428,1197,0
0.00475429,1197,0
0.0047543,1197,0
0.00475431,1197,0
0.00475432,675,1
0.00475433,675,1
0.00475434,675,0
0.00475435,675,0
0.00475436,675,0
0.00475437,675,0
0.00475438,675,0
0.00475439,675,0
0.0047544,675,0
0.00475441,675,0
0.00475442,675,0
0.00475443,675,0
0.00475444,529,1
0.00475445,529,1
0.00475446,529,0
0.00475447,529,0
0.00475448,529,0
0.00475449,529,0
0.0047545,529,0
0.00475451,529,0
0.00475452,529,0
0.00475453,529,0
0.00475454,529,0
0.00475455,529,0
0.00475456,2822,1
0.00475457,2822,1
0.00475458,2822,0
0.00475459,2822,0
0.0047546,2822,0
0.00475461,2822,0
0.00475462,2822,0
0.00475463,2822,0
0.00475464,2822,0
0.00475465,2822,0
0.00475466,2822,0
0.00475467,2822,0
0.00475468,2822,1
0.00475469,2822,1
0.0047547,2822,0
0.00475471,2822,0
0.00475472,2822,0
0.00475473,2822,0
0.00475474,2822,0
0.00475475,2822,0
0.00475476,2822,0
0.00475477,2822,0
0.00475478,2822,0
0.00475479,2822,0
0.0047548,2476,1
0.00475481,2476,1
0.00475482,2476,0
0.00475483,2476,0
0.00475484,2476,0
0.00475485,2476,0
0.00475486,2476,0
0.00475487,2476,0
0.00475488,2476,0
0.00475489,2476,0
0.0047549,2476,0
0.00475491,2476,0
0.00475492,2304,1
0.00475493,2304,1
0.00475494,2304,0
0.00475495,2304,0
0.00475496,2304,0
0.00475497,2304,0
0.00475498,2304,0
0.00475499,2304,0
0.004755,2304,0
0.00475501,2304,0
0.00475502,2304,0
0.00475503,2304,0
0.00475504,3856,1
0.00475505,3856,1
0.00475506,3856,0
0.00475507,3856,0
0.00475508,3856,0
0.00475509,3856,0
0.0047551,3856,0
0.00475511,3856,0
0.00475512,3856,0
0.00475513,3856,0
0.00475514,3856,0
0.00475515,3856,0
0.00475516,2868,1
0.00475517,2868,1
0.00475518,2868,0
0.00475519,2868,0
0.0047552,2868,0
0.00475521,2868,0
0.00475522,2868,0
0.00475523,2868,0
0.00475524,2868,0
0.00475525,2868,0
0.00475526,2868,0
0.00475527,2868,0
0.00475528,1048,1
0.00475529,1048,1
0.0047553,1048,0
0.00475531,1048,0
0.00475532,1048,0
0.00475533,1048,0
0.00475534,1048,0
0.00475535,1048,0
0.00475536,1048,0
0.00475537,1048,0
0.00475538,1048,0
0.00475539,1048,0
0.0047554,1194,1
0.00475541,1194,1
0.00475542,1194,0
0.00475543,1194,0
0.00475544,1194,0
0.00475545,1194,0
0.00475546,1194,0
0.00475547,1194,0
0.00475548,1194,0
0.00475549,1194,0
0.0047555,1194,0
0.00475551,1194,0
0.00475552,3385,1
0.00475553,3385,1
0.00475554,3385,0
0.00475555,3385,0
0.00475556,3385,0
0.00475557,3385,0
0.00475558,3385,0
0.00475559,3385,0
0.0047556,3385,0
0.00475561,3385,0
0.00475562,3385,0
0.00475563,3385,0
0.00475564,3877,1
0.00475565,3877,1
0.00475566,3877,0
0.00475567,3877,0
0.00475568,3877,0
0.00475569,3877,0
0.0047557,3877,0
0.00475571,3877,0
0.00475572,3877,0
0.00475573,3877,0
0.00475574,3877,0
0.00475575,3877,0
0.00475576,515,1
0.00475577,515,1
0.00475578,515,0
0.00475579,515,0
0.0047558,515,0
0.00475581,515,0
0.00475582,515,0
0.00475583,515,0
0.00475584,515,0
0.00475585,515,0
0.00475586,515,0
0.00475587,515,0
0.00475588,2847,1
0.00475589,2847,1
0.0047559,2847,0
0.00475591,2847,0
0.00475592,2847,0
0.00475593,2847,0
0.00475594,1707,1
0.00475595,1707,1
0.00475596,1707,0
0.00475597,1707,0
0.00475598,1707,0
0.00475599,1707,0
0.004756,1707,0
0.00475601,1707,0
0.00475602,1707,0
0.00475603,1707,0
0.00475604,1707,0
0.00475605,1707,0
0.00475606,153,1
0.00475607,153,1
0.00475608,153,0
0.00475609,153,0
0.0047561,153,0
0.00475611,153,0
0.00475612,153,0
0.00475613,153,0
0.00475614,153,0
0.00475615,153,0
0.00475616,153,0
0.00475617,153,0
0.00475618,2094,1
0.00475619,2094,1
0.0047562,2094,0
0.00475621,2094,0
0.00475622,2094,0
0.00475623,2094,0
0.00475624,2094,0
0.00475625,2094,0
0.00475626,2094,0
0.00475627,2094,0
0.00475628,2094,0
0.00475629,2094,0
0.0047563,302,1
0.00475631,302,1
0.00475632,302,0
0.00475633,302,0
0.00475634,302,0
0.00475635,302,0
0.00475636,302,0
0.00475637,302,0
0.00475638,302,0
0.00475639,302,0
0.0047564,302,0
0.00475641,302,0
0.00475642,1172,1
0.00475643,1172,1
0.00475644,1172,0
0.00475645,1172,0
0.00475646,1172,0
0.00475647,1172,0
0.00475648,1172,0
0.00475649,1172,0
0.0047565,1172,0
0.00475651,1172,0
0.00475652,1172,0
0.00475653,1172,0
0.00475654,3872,1
0.00475655,3872,1
0.00475656,3872,0
0.00475657,3872,0
0.00475658,3872,0
0.00475659,3872,0
0.0047566,3872,0
0.00475661,3872,0
0.00475662,3872,0
0.00475663,3872,0
0.00475664,3872,0
0.00475665,3872,0
0.00475666,944,1
0.00475667,944,1
0.00475668,944,0
0.00475669,944,0
0.0047567,944,0
0.00475671,944,0
0.00475672,944,0
0.00475673,944,0
0.00475674,944,0
0.00475675,944,0
0.00475676,944,0
0.00475677,944,0
0.00475678,3620,1
0.00475679,3620,1
0.0047568,3620,0
0.00475681,3620,0
0.00475682,3620,0
0.00475683,3620,0
0.00475684,3620,0
0.00475685,3620,0
0.00475686,3620,0
0.00475687,3620,0
0.00475688,3620,0
0.00475689,3620,0
0.0047569,1584,1
0.00475691,1584,1
0.00475692,1584,0
0.00475693,1584,0
0.00475694,1584,0
0.00475695,1584,0
0.00475696,1584,0
0.00475697,1584,0
0.00475698,1584,0
0.00475699,1584,0
0.004757,1584,0
0.00475701,1584,0
0.00475702,1066,1
0.00475703,1066,1
0.00475704,1066,0
0.00475705,1066,0
0.00475706,1066,0
0.00475707,1066,0
0.00475708,1066,0
0.00475709,1066,0
0.0047571,1066,0
0.00475711,1066,0
0.00475712,1066,0
0.00475713,1066,0
0.00475714,2832,1
0.00475715,2832,1
0.00475716,2832,0
0.00475717,2832,0
0.00475718,2832,0
0.00475719,2832,0
0.0047572,2832,0
0.00475721,2832,0
0.00475722,2832,0
0.00475723,2832,0
0.00475724,2832,0
0.00475725,2832,0
0.00475726,809,1
0.00475727,809,1
0.00475728,809,0
0.00475729,809,0
0.0047573,809,0
0.00475731,809,0
0.00475732,809,0
0.00475733,809,0
0.00475734,809,0
0.00475735,809,0
0.00475736,809,0
0.00475737,809,0
0.00475738,269,1
0.00475739,269,1
0.0047574,269,0
0.00475741,269,0
0.00475742,269,0
0.00475743,269,0
0.00475744,269,0
0.00475745,269,0
0.00475746,269,0
0.00475747,269,0
0.00475748,269,0
0.00475749,269,0
0.0047575,2871,1
0.00475751,2871,1
0.00475752,2871,0
0.00475753,2871,0
0.00475754,2871,0
0.00475755,2871,0
0.00475756,2871,0
0.00475757,2871,0
0.00475758,2871,0
0.00475759,2871,0
0.0047576,2871,0
0.00475761,2871,0
0.00475762,1035,1
0.00475763,1035,1
0.00475764,1035,0
0.00475765,1035,0
0.00475766,1035,0
0.00475767,1035,0
0.00475768,1035,0
0.00475769,1035,0
0.0047577,1035,0
0.00475771,1035,0
0.00475772,1035,0
0.00475773,1035,0
0.00475774,3463,1
0.00475775,3463,1
0.00475776,3463,0
0.00475777,3463,0
0.00475778,3463,0
0.00475779,3463,0
0.0047578,3463,0
0.00475781,3463,0
0.00475782,3463,0
0.00475783,3463,0
0.00475784,3463,0
0.00475785,3463,0
0.00475786,2323,1
0.00475787,2323,1
0.00475788,2323,0
0.00475789,2323,0
0.0047579,2323,0
0.00475791,2323,0
0.00475792,2323,0
0.00475793,2323,0
0.00475794,2323,0
0.00475795,2323,0
0.00475796,2323,0
0.00475797,2323,0
0.00475798,1211,1
0.00475799,1211,1
0.004758,1211,0
0.00475801,1211,0
0.00475802,1211,0
0.00475803,1211,0
0.00475804,1211,0
0.00475805,1211,0
0.00475806,1211,0
0.00475807,1211,0
0.00475808,1211,0
0.00475809,1211,0
0.0047581,817,1
0.00475811,817,1
0.00475812,817,0
0.00475813,817,0
0.00475814,817,0
0.00475815,817,0
0.00475816,817,0
0.00475817,817,0
0.00475818,817,0
0.00475819,817,0
0.0047582,817,0
0.00475821,817,0
0.00475822,1433,1
0.00475823,1433,1
0.00475824,1433,0
0.00475825,1433,0
0.00475826,1433,0
0.00475827,1433,0
0.00475828,1433,0
0.00475829,1433,0
0.0047583,1433,0
0.00475831,1433,0
0.00475832,1433,0
0.00475833,1433,0
0.00475834,3132,1
0.00475835,3132,1
0.00475836,3132,0
0.00475837,3132,0
0.00475838,3132,0
0.00475839,3132,0
0.0047584,3132,0
0.00475841,3132,0
0.00475842,3132,0
0.00475843,3132,0
0.00475844,3132,0
0.00475845,3132,0
0.00475846,412,1
0.00475847,412,1
0.00475848,412,0
0.00475849,412,0
0.0047585,412,0
0.00475851,412,0
0.00475852,412,0
0.00475853,412,0
0.00475854,412,0
0.00475855,412,0
0.00475856,412,0
0.00475857,412,0
0.00475858,0,1
0.00475859,0,1
0.0047586,0,0
0.00475861,0,0
0.00475862,0,0
0.00475863,0,0
0.00475864,0,0
0.00475865,0,0
0.00475866,0,0
0.00475867,0,0
0.00475868,0,0
0.00475869,0,0
0.0047587,2580,1
0.00475871,2580,1
0.00475872,2580,0
0.00475873,2580,0
0.00475874,2580,0
0.00475875,2580,0
0.00475876,2580,0
0.00475877,2580,0
0.00475878,2580,0
0.00475879,2580,0
0.0047588,2580,0
0.00475881,2580,0
0.00475882,160,1
0.00475883,160,1
0.00475884,160,0
0.00475885,160,0
0.00475886,160,0
0.00475887,160,0
0.00475888,160,0
0.00475889,160,0
0.0047589,160,0
0.00475891,160,0
0.00475892,160,0
0.00475893,160,0
0.00475894,2834,1
0.00475895,2834,1
0.00475896,2834,0
0.00475897,2834,0
0.00475898,2834,0
0.00475899,2834,0
0.004759,2834,0
0.00475901,2834,0
0.00475902,2834,0
0.00475903,2834,0
0.00475904,2834,0
0.00475905,2834,0
0.00475906,3074,1
0.00475907,3074,1
0.00475908,3074,0
0.00475909,3074,0
0.0047591,3074,0
0.00475911,3074,0
0.00475912,3074,0
0.00475913,3074,0
0.00475914,3074,0
0.00475915,3074,0
0.00475916,3074,0
0.00475917,3074,0
0.00475918,809,1
0.00475919,809,1
0.0047592,809,0
0.00475921,809,0
0.00475922,809,0
0.00475923,809,0
0.00475924,809,0
0.00475925,809,0
0.00475926,809,0
0.00475927,809,0
0.00475928,809,0
0.00475929,809,0
0.0047593,1313,1
0.00475931,1313,1
0.00475932,1313,0
0.00475933,1313,0
0.00475934,1313,0
0.00475935,1313,0
0.00475936,1313,0
0.00475937,1313,0
0.00475938,1313,0
0.00475939,1313,0
0.0047594,1313,0
0.00475941,1313,0
0.00475942,651,1
0.00475943,651,1
0.00475944,651,0
0.00475945,651,0
0.00475946,651,0
0.00475947,651,0
0.00475948,651,0
0.00475949,651,0
0.0047595,651,0
0.00475951,651,0
0.00475952,651,0
0.00475953,651,0
0.00475954,315,1
0.00475955,315,1
0.00475956,315,0
0.00475957,315,0
0.00475958,315,0
0.00475959,315,0
0.0047596,315,0
0.00475961,315,0
0.00475962,315,0
0.00475963,315,0
0.00475964,315,0
0.00475965,315,0
0.00475966,3903,1
0.00475967,3903,1
0.00475968,3903,0
0.00475969,3903,0
0.0047597,3903,0
0.00475971,3903,0
0.00475972,3903,0
0.00475973,3903,0
0.00475974,3903,0
0.00475975,3903,0
0.00475976,3903,0
0.00475977,3903,0
0.00475978,2571,1
0.00475979,2571,1
0.0047598,2571,0
0.00475981,2571,0
0.00475982,2571,0
0.00475983,2571,0
0.00475984,2571,0
0.00475985,2571,0
0.00475986,2571,0
0.00475987,2571,0
0.00475988,2571,0
0.00475989,2571,0
0.0047599,3895,1
0.00475991,3895,1
0.00475992,3895,0
0.00475993,3895,0
0.00475994,3895,0
0.00475995,3895,0
0.00475996,3895,0
0.00475997,3895,0
0.00475998,3895,0
0.00475999,3895,0
0.00476,3895,0
0.00476001,3895,0
0.00476002,1437,1
0.00476003,1437,1
0.00476004,1437,0
0.00476005,1437,0
0.00476006,1437,0
0.00476007,1437,0
0.00476008,1437,0
0.00476009,1437,0
0.0047601,1437,0
0.00476011,1437,0
0.00476012,1437,0
0.00476013,1437,0
0.00476014,1561,1
0.00476015,1561,1
0.00476016,1561,0
0.00476017,1561,0
0.00476018,1561,0
0.00476019,1561,0
0.0047602,1561,0
0.00476021,1561,0
0.00476022,1561,0
0.00476023,1561,0
0.00476024,1561,0
0.00476025,1561,0
0.00476026,786,1
0.00476027,786,1
0.00476028,786,0
0.00476029,786,0
0.0047603,786,0
0.00476031,786,0
0.00476032,786,0
0.00476033,786,0
0.00476034,786,0
0.00476035,786,0
0.00476036,786,0
0.00476037,786,0
0.00476038,2842,1
0.00476039,2842,1
0.0047604,2842,0
0.00476041,2842,0
0.00476042,2842,0
0.00476043,2842,0
0.00476044,2842,0
0.00476045,2842,0
0.00476046,2842,0
0.00476047,2842,0
0.00476048,2842,0
0.00476049,2842,0
0.0047605,2600,1
0.00476051,2600,1
0.00476052,2600,0
0.00476053,2600,0
0.00476054,2600,0
0.00476055,2600,0
0.00476056,2600,0
0.00476057,2600,0
0.00476058,2600,0
0.00476059,2600,0
0.0047606,2600,0
0.00476061,2600,0
0.00476062,3624,1
0.00476063,3624,1
0.00476064,3624,0
0.00476065,3624,0
0.00476066,3624,0
0.00476067,3624,0
0.00476068,3624,0
0.00476069,3624,0
0.0047607,3624,0
0.00476071,3624,0
0.00476072,3624,0
0.00476073,3624,0
0.00476074,0,1
0.00476075,0,1
0.00476076,0,0
0.00476077,0,0
0.00476078,0,0
0.00476079,0,0
0.0047608,0,0
0.00476081,0,0
0.00476082,0,0
0.00476083,0,0
0.00476084,0,0
0.00476085,0,0
0.00476086,2620,1
0.00476087,2620,1
0.00476088,2620,0
0.00476089,2620,0
0.0047609,2620,0
0.00476091,2620,0
0.00476092,2620,0
0.00476093,2620,0
0.00476094,2620,0
0.00476095,2620,0
0.00476096,2620,0
0.00476097,2620,0
0.00476098,4004,1
0.00476099,4004,1
0.004761,4004,0
0.00476101,4004,0
0.00476102,4004,0
0.00476103,4004,0
0.00476104,4004,0
0.00476105,4004,0
0.00476106,4004,0
0.00476107,4004,0
0.00476108,4004,0
0.00476109,4004,0
0.0047611,806,1
0.00476111,806,1
0.00476112,806,0
0.00476113,806,0
0.00476114,806,0
0.00476115,806,0
0.00476116,806,0
0.00476117,806,0
0.00476118,806,0
0.00476119,806,0
0.0047612,806,0
0.00476121,806,0
0.00476122,2622,1
0.00476123,2622,1
0.00476124,2622,0
0.00476125,2622,0
0.00476126,2622,0
0.00476127,2622,0
0.00476128,2622,0
0.00476129,2622,0
0.0047613,2622,0
0.00476131,2622,0
0.00476132,2622,0
0.00476133,2622,0
